! Agilent Technologies,N5247A,US51370533,A.10.49.04
! A-N5247A-70533 Fri Jun 03 11:30:42 2016
# HZ S RI R 50
!freq (Hz)   S11R            S11I           S21R         S21I           S12R          S12I         S22R           S22I 

50000000 -5.518779e-001 -3.354367e-002 2.156095e-004 2.500449e-004 3.974545e-005 2.537138e-005 -3.332049e-001 -3.462359e-001
53250000 -3.496644e-001 -4.222665e-001 4.663411e-004 -9.464086e-005 9.758347e-006 -1.112834e-004 -4.821662e-001 5.709036e-002
56500000 4.622297e-002 -5.447380e-001 -6.523341e-005 -7.616045e-005 5.655806e-005 -2.105766e-005 -2.127179e-001 4.147499e-001
59750000 4.079746e-001 -3.500082e-001 -5.664668e-005 -2.184703e-004 2.983015e-005 -6.120970e-005 2.410039e-001 4.297282e-001
63000000 5.319397e-001 4.047916e-002 1.746179e-004 8.238038e-005 1.729008e-005 4.287206e-005 5.486036e-001 1.199939e-001
66250000 3.455100e-001 3.857742e-001 1.142379e-004 1.009207e-004 5.815376e-006 6.779403e-005 5.643561e-001 -2.846802e-001
69500000 -2.897843e-002 4.986595e-001 -1.556598e-004 2.128292e-004 6.010391e-006 7.171625e-006 3.474677e-001 -5.884051e-001
72750000 -3.911840e-001 3.010530e-001 2.266755e-004 -2.137008e-005 9.283039e-006 3.485718e-006 2.132930e-002 -7.126319e-001
76000000 -4.899381e-001 -5.103124e-002 -1.759214e-004 1.174269e-004 1.322575e-005 -5.875113e-005 -3.069482e-001 -6.573274e-001
79250000 -2.847543e-001 -3.943306e-001 1.111361e-004 1.891362e-004 4.823145e-005 -1.419381e-006 -5.615097e-001 -4.590836e-001
82500000 5.124315e-002 -4.895395e-001 2.763123e-004 1.354593e-005 9.916504e-006 1.242173e-005 -6.961396e-001 -1.738573e-001
85750000 3.859295e-001 -2.799432e-001 6.837894e-005 4.028908e-005 1.439450e-005 -4.076808e-005 -6.931310e-001 1.336884e-001
89000000 4.724205e-001 6.629246e-002 -7.695734e-005 9.537177e-005 3.438546e-005 -4.022712e-005 -5.656998e-001 4.023084e-001
92250000 2.895293e-001 3.678209e-001 -6.191788e-005 1.602632e-005 -8.649667e-006 3.129447e-005 -3.506968e-001 5.878322e-001
95500000 -5.789891e-002 4.460980e-001 2.583432e-005 -8.264348e-007 3.470812e-006 5.127029e-006 -9.650885e-002 6.713260e-001
98750000 -3.645006e-001 2.554973e-001 -1.350198e-004 4.255005e-005 -1.051473e-006 7.203460e-006 1.523348e-001 6.576210e-001
102000000 -4.423404e-001 -7.091964e-002 -4.118419e-005 -1.002451e-004 -2.030207e-005 7.770040e-006 3.643069e-001 5.675282e-001
105250000 -2.314328e-001 -3.661686e-001 -1.344881e-004 2.038610e-005 -8.179355e-007 2.136501e-006 5.229509e-001 4.268262e-001
108500000 1.001586e-001 -4.414378e-001 -2.472464e-005 8.984451e-005 2.184433e-006 3.419396e-005 6.238242e-001 2.602149e-001
111750000 3.518289e-001 -2.688314e-001 1.577804e-005 4.519360e-005 4.173073e-005 -7.710887e-005 6.707528e-001 8.687609e-002
115000000 4.146229e-001 9.591140e-002 -1.041761e-004 3.988098e-006 5.266198e-005 4.245325e-005 6.712744e-001 -7.938028e-002
118250000 2.376093e-001 3.483641e-001 -2.305870e-004 -1.969037e-004 1.371504e-005 1.209269e-005 6.338180e-001 -2.291154e-001
121500000 -9.462033e-002 4.042783e-001 -2.188261e-005 2.200627e-005 1.255647e-005 3.572421e-005 5.674034e-001 -3.572401e-001
124750000 -3.528514e-001 2.098440e-001 -1.926049e-004 -4.104046e-005 2.476520e-005 -2.844191e-005 4.800533e-001 -4.606106e-001
128000000 -4.018506e-001 -9.949398e-002 6.358757e-005 -1.124880e-004 -1.091625e-005 -1.392873e-005 3.787870e-001 -5.384218e-001
131250000 -2.088385e-001 -3.489027e-001 1.211758e-004 -4.959451e-005 1.308518e-005 9.573439e-006 2.700581e-001 -5.911635e-001
134500000 6.791169e-002 -3.901739e-001 7.865689e-005 1.247245e-004 3.882482e-005 2.575445e-005 1.585994e-001 -6.200348e-001
137750000 3.691600e-001 -1.557271e-001 -7.762323e-005 4.034666e-005 2.726808e-006 2.051343e-006 4.880396e-002 -6.267369e-001
141000000 3.890906e-001 1.306975e-001 -1.507180e-004 1.320102e-004 -2.575499e-005 -1.928247e-005 -5.571197e-002 -6.135172e-001
144250000 1.858671e-001 3.469825e-001 -7.462666e-005 -4.211867e-005 -2.001658e-005 -4.067764e-006 -1.524191e-001 -5.828053e-001
147500000 -1.199806e-001 3.671435e-001 -1.259311e-005 -6.636083e-005 4.326090e-005 -2.878869e-005 -2.385112e-001 -5.372337e-001
150750000 -3.347327e-001 1.644482e-001 -2.634085e-005 9.757589e-005 2.213121e-005 -1.305998e-005 -3.129053e-001 -4.793074e-001
154000000 -3.440528e-001 -1.341246e-001 -8.172439e-005 1.247136e-004 -8.697698e-006 4.264277e-006 -3.743233e-001 -4.117871e-001
157250000 -1.439550e-001 -3.555527e-001 1.172900e-005 -2.398506e-004 -4.687780e-005 -3.833295e-005 -4.219233e-001 -3.374465e-001
160500000 1.479709e-001 -3.432595e-001 2.109862e-007 1.534197e-004 -2.486460e-005 2.142335e-005 -4.554380e-001 -2.587116e-001
163750000 3.393662e-001 -1.464007e-001 -1.377651e-004 -8.149468e-005 3.303886e-005 2.784204e-005 -4.751304e-001 -1.778403e-001
167000000 3.398946e-001 1.512915e-001 3.269587e-005 4.400618e-005 -5.698282e-006 1.776641e-006 -4.814054e-001 -9.720533e-002
170250000 1.437175e-001 3.404286e-001 -1.285352e-004 -1.688880e-004 6.889532e-006 -1.538335e-005 -4.750599e-001 -1.882388e-002
173500000 -1.308102e-001 3.286573e-001 1.486196e-004 -7.654192e-005 -1.141179e-005 1.137294e-005 -4.571176e-001 5.547580e-002
176750000 -3.337491e-001 1.242146e-001 7.850086e-005 -4.466666e-005 1.803706e-005 2.283531e-005 -4.286310e-001 1.242984e-001
180000000 -3.196091e-001 -1.402541e-001 4.252109e-005 -8.920303e-005 1.229358e-005 2.323032e-005 -3.910031e-001 1.863093e-001
183250000 -1.033583e-001 -3.220084e-001 -1.295249e-004 2.613728e-004 2.343158e-006 2.900419e-005 -3.458587e-001 2.404937e-001
186500000 1.680782e-001 -3.048975e-001 -2.411065e-006 -1.022793e-004 2.136739e-005 4.167156e-005 -2.946015e-001 2.862677e-001
189750000 3.445506e-001 -8.103575e-002 7.676060e-005 2.022047e-006 -1.557160e-005 -2.686519e-005 -2.387072e-001 3.232218e-001
193000000 3.150478e-001 1.653393e-001 1.777787e-004 8.099548e-005 2.934026e-005 -4.148601e-006 -1.797686e-001 3.509809e-001
196250000 1.103153e-001 3.315262e-001 1.465920e-004 5.566382e-006 7.297655e-006 4.488971e-007 -1.190103e-001 3.698600e-001
199500000 -1.522266e-001 2.903478e-001 -1.087085e-004 -1.294808e-004 -1.006392e-005 -2.192277e-005 -5.798944e-002 3.800251e-001
202750000 -3.020031e-001 7.058553e-002 -1.161264e-004 1.310462e-004 4.754751e-006 -3.081776e-005 2.279949e-003 3.818693e-001
206000000 -2.684758e-001 -1.706136e-001 -5.635178e-005 -9.335150e-005 8.176396e-006 -4.603115e-005 6.098418e-002 3.760473e-001
209250000 -6.079916e-002 -3.389191e-001 -8.902607e-006 4.161555e-005 4.022431e-005 -1.045856e-005 1.169072e-001 3.628131e-001
212500000 1.694379e-001 -2.788874e-001 -1.971536e-004 3.538399e-005 3.710256e-006 1.688246e-005 1.693441e-001 3.433651e-001
215750000 3.267354e-001 -6.180918e-002 -1.819992e-004 -1.102109e-004 -1.598739e-005 2.610058e-005 2.178447e-001 3.181453e-001
219000000 2.751912e-001 1.652896e-001 1.865971e-004 5.042275e-005 2.017434e-005 -2.233836e-005 2.618638e-001 2.877901e-001
222250000 5.518536e-002 3.160083e-001 -3.820261e-004 -1.297148e-004 3.282939e-005 -2.919657e-006 3.011003e-001 2.534518e-001
225500000 -1.906539e-001 2.490621e-001 -2.340945e-004 -2.237958e-004 2.823482e-005 2.057047e-005 3.353715e-001 2.158829e-001
228750000 -2.933130e-001 5.259506e-002 -1.079281e-005 -1.132087e-004 -1.297103e-005 4.134707e-006 3.645681e-001 1.755415e-001
232000000 -2.436087e-001 -1.788019e-001 7.666147e-006 -2.157815e-005 -3.175914e-005 4.627465e-005 3.884974e-001 1.330558e-001
235250000 -1.571098e-002 -3.048229e-001 -2.383594e-004 6.828394e-005 2.158412e-005 -3.577118e-005 4.072489e-001 8.903652e-002
238500000 2.073570e-001 -2.427401e-001 -1.072037e-004 8.475620e-005 -2.969724e-005 2.658658e-005 4.209892e-001 4.442237e-002
241750000 3.110911e-001 -3.953249e-002 6.842697e-005 5.102824e-005 5.047627e-006 1.613352e-005 4.299615e-001 -4.230402e-004
245000000 2.405407e-001 1.927404e-001 -5.169420e-005 -1.840722e-004 1.585637e-005 2.463675e-005 4.341063e-001 -4.511964e-002
248250000 2.438949e-002 2.789799e-001 5.085217e-006 1.820748e-004 -9.275872e-005 -1.523433e-005 4.339103e-001 -8.901282e-002
251500000 -2.063731e-001 2.137387e-001 -1.529233e-005 -1.293154e-004 3.664997e-005 9.736906e-006 4.295786e-001 -1.318187e-001
254750000 -2.980825e-001 6.623674e-003 -1.082342e-004 1.389198e-005 1.464255e-005 -2.953026e-005 4.213248e-001 -1.733465e-001
258000000 -2.166622e-001 -1.795555e-001 -1.277724e-004 -8.854475e-005 1.510447e-005 -2.459684e-005 4.094728e-001 -2.129801e-001
261250000 5.381268e-003 -2.864520e-001 -1.296934e-004 1.636230e-004 -1.196814e-005 -2.244324e-005 3.946444e-001 -2.507660e-001
264500000 2.151544e-001 -1.954153e-001 4.158810e-005 -2.646458e-005 -5.280122e-006 5.863240e-006 3.767066e-001 -2.864547e-001
267750000 2.896137e-001 1.176652e-002 -7.434194e-005 5.648677e-005 6.759618e-005 -4.024739e-005 3.561742e-001 -3.200220e-001
271000000 2.023647e-001 2.155964e-001 -1.789147e-004 -2.591733e-004 4.276068e-005 6.498967e-008 3.329863e-001 -3.512360e-001
274250000 7.942451e-003 2.894583e-001 1.507490e-004 1.831122e-004 -8.150483e-006 3.485824e-005 3.077458e-001 -3.799358e-001
277500000 -1.951986e-001 1.870784e-001 1.291844e-005 7.902610e-005 -4.235538e-005 3.425941e-005 2.807312e-001 -4.059932e-001
280750000 -2.600080e-001 -1.338299e-002 -9.418705e-005 7.744211e-005 -4.152914e-005 -1.450716e-006 2.520138e-001 -4.295787e-001
284000000 -1.654876e-001 -2.151954e-001 -8.357794e-005 -1.472500e-004 2.955958e-007 4.827417e-006 2.218043e-001 -4.502569e-001
287250000 4.795942e-002 -2.625000e-001 2.112376e-004 -2.648848e-005 -3.391134e-006 3.693751e-005 1.906622e-001 -4.683658e-001
290500000 2.278753e-001 -1.611219e-001 6.601183e-005 -3.577513e-005 -2.900541e-005 7.659128e-006 1.587393e-001 -4.837591e-001
293750000 3.036498e-001 1.551249e-002 1.645439e-004 1.162556e-004 -1.083388e-005 7.030955e-006 1.259310e-001 -4.964304e-001
297000000 1.525495e-001 2.031043e-001 9.225470e-005 -1.958466e-004 2.400219e-005 6.783134e-006 9.276263e-002 -5.064215e-001
300250000 -2.143001e-002 2.711833e-001 -1.622463e-004 -2.939124e-004 -7.202586e-006 -3.420903e-005 5.919508e-002 -5.140394e-001
303500000 -1.918353e-001 1.418472e-001 6.470262e-006 1.882404e-005 -2.263233e-005 -5.438925e-006 2.575447e-002 -5.189047e-001
306750000 -2.455267e-001 -7.371788e-002 -2.526035e-005 -3.782060e-005 1.055722e-005 -4.922969e-005 -7.499275e-003 -5.214142e-001
310000000 -1.386198e-001 -2.294510e-001 4.191514e-005 6.424383e-005 -1.485830e-005 -1.387974e-006 -4.057224e-002 -5.214416e-001
313250000 6.133877e-002 -2.590369e-001 -1.654195e-004 1.949425e-005 1.150765e-005 6.171171e-006 -7.329329e-002 -5.190645e-001
316500000 2.163661e-001 -1.500965e-001 2.199735e-004 1.450406e-004 -1.201359e-005 1.788548e-005 -1.053708e-001 -5.145558e-001
319750000 2.360476e-001 6.922676e-002 1.309530e-004 5.967372e-005 2.357677e-005 3.118005e-005 -1.366558e-001 -5.079232e-001
323000000 1.315842e-001 2.249263e-001 -6.008675e-005 -1.411047e-004 -2.930747e-005 -1.242177e-005 -1.669542e-001 -4.991814e-001
326250000 -6.152343e-002 2.470484e-001 3.060975e-004 -5.260319e-005 -2.061386e-005 -1.464352e-006 -1.965789e-001 -4.885413e-001
329500000 -2.148610e-001 1.165089e-001 -1.045908e-004 -1.667353e-004 -1.345666e-005 3.768439e-005 -2.249869e-001 -4.759287e-001
332750000 -2.256590e-001 -8.719176e-002 -9.158180e-005 -1.866090e-004 -6.359108e-006 -3.057429e-005 -2.522959e-001 -4.613950e-001
336000000 -1.145222e-001 -2.156354e-001 -1.319506e-005 -2.485411e-005 4.235128e-007 3.405619e-006 -2.782143e-001 -4.455397e-001
339250000 8.895465e-002 -2.127616e-001 -7.829043e-005 -5.747448e-005 2.152820e-005 1.937005e-006 -3.029065e-001 -4.279756e-001
342500000 2.450356e-001 -8.089858e-002 3.106162e-006 -3.455581e-005 7.678914e-006 1.918751e-005 -3.262613e-001 -4.089220e-001
345750000 2.553606e-001 7.178435e-002 -7.697250e-005 -6.045662e-005 2.908289e-006 -6.306578e-007 -3.480157e-001 -3.883308e-001
349000000 9.842855e-002 2.119122e-001 1.043711e-004 -7.518868e-005 4.713041e-006 -1.080887e-005 -3.681732e-001 -3.667877e-001
352250000 -9.339093e-002 2.174680e-001 1.129658e-004 -1.657178e-005 7.383852e-007 -2.176289e-005 -3.868183e-001 -3.440131e-001
355500000 -2.029858e-001 1.002933e-001 -1.473313e-004 2.666871e-005 -1.049527e-005 -3.228657e-005 -4.038043e-001 -3.201129e-001
358750000 -1.894429e-001 -1.189530e-001 3.898707e-005 1.521302e-004 5.112583e-006 -1.262750e-005 -4.189619e-001 -2.953348e-001
362000000 -6.462117e-002 -2.173686e-001 4.425094e-005 1.674534e-005 -2.840188e-005 -5.122877e-005 -4.326071e-001 -2.697341e-001
365250000 1.244909e-001 -2.073090e-001 -9.497125e-005 4.836044e-005 -2.861938e-006 -4.691205e-006 -4.443013e-001 -2.435528e-001
368500000 2.462888e-001 -9.337797e-002 -5.530285e-005 -1.516452e-004 1.909558e-005 7.817988e-006 -4.542527e-001 -2.168639e-001
371750000 2.100346e-001 7.982356e-002 -1.695143e-006 8.246548e-005 8.023074e-006 -3.207325e-005 -4.624301e-001 -1.893953e-001
375000000 5.519341e-002 1.963601e-001 5.344762e-005 -3.093347e-004 7.208999e-006 4.594076e-005 -4.686168e-001 -1.617258e-001
378250000 -1.175734e-001 2.035002e-001 -1.062597e-004 -8.077821e-005 -6.166088e-008 -8.006538e-006 -4.729525e-001 -1.338263e-001
381500000 -1.949050e-001 6.553803e-002 -1.465215e-004 -4.463836e-005 2.777183e-005 -1.613781e-006 -4.754345e-001 -1.057942e-001
384750000 -1.782099e-001 -1.391907e-001 -1.645608e-004 1.030368e-004 1.508132e-005 -1.188989e-005 -4.759679e-001 -7.771613e-002
388000000 -5.009792e-002 -2.338658e-001 -9.243857e-005 -5.852679e-005 -5.204597e-006 -4.070290e-005 -4.746279e-001 -4.965523e-002
391250000 1.090025e-001 -1.946433e-001 -9.739198e-005 -8.147478e-005 -3.214833e-005 -3.683913e-005 -4.713280e-001 -2.198475e-002
394500000 2.164732e-001 -3.771525e-002 -1.298587e-004 1.734072e-005 7.831835e-006 2.706398e-006 -4.660944e-001 5.482325e-003
397750000 1.760231e-001 1.125933e-001 -1.075832e-005 4.479872e-006 1.458730e-005 9.106149e-006 -4.594196e-001 3.221769e-002
401000000 2.822978e-002 2.005122e-001 -3.192963e-005 3.063108e-005 5.978398e-005 1.347574e-005 -4.505357e-001 5.860523e-002
404250000 -1.520956e-001 1.726947e-001 -2.991710e-004 1.022617e-004 6.986539e-005 2.391073e-005 -4.398541e-001 8.416121e-002
407500000 -2.129456e-001 5.441049e-002 -2.143048e-004 1.801663e-004 2.839076e-005 1.252560e-005 -4.274080e-001 1.089704e-001
410750000 -1.855356e-001 -1.053596e-001 9.475119e-005 2.595252e-004 3.929574e-005 -1.208106e-005 -4.132503e-001 1.327547e-001
414000000 -6.631580e-003 -1.834416e-001 -1.074403e-004 -6.710297e-005 3.649592e-005 5.515382e-005 -3.975179e-001 1.555389e-001
417250000 1.545488e-001 -1.565131e-001 -3.538257e-004 -1.313320e-004 -3.793738e-005 3.390324e-005 -3.803539e-001 1.769830e-001
420500000 2.126603e-001 -1.467463e-002 2.425372e-005 -1.373493e-004 -1.708878e-005 -6.069615e-006 -3.615023e-001 1.972145e-001
423750000 1.771438e-001 1.304284e-001 -1.023084e-004 -1.833469e-004 -1.176517e-005 -2.979131e-006 -3.411957e-001 2.161365e-001
427000000 1.463788e-002 2.003755e-001 -5.535664e-005 2.631120e-004 -1.017688e-005 -3.992395e-005 -3.196726e-001 2.334812e-001
430250000 -1.353289e-001 1.468344e-001 -9.751158e-005 6.301820e-005 -1.037966e-005 3.097576e-005 -2.967976e-001 2.491984e-001
433500000 -1.949610e-001 -3.373309e-003 -2.804840e-004 1.659294e-005 1.046400e-005 -2.436302e-005 -2.728290e-001 2.630961e-001
436750000 -1.488775e-001 -1.492229e-001 -1.580989e-004 -1.226241e-004 4.162109e-005 -5.129810e-006 -2.475372e-001 2.751889e-001
440000000 -1.868458e-002 -1.938684e-001 2.255035e-004 1.401380e-004 7.180699e-006 -2.445436e-005 -2.214090e-001 2.853158e-001
443250000 1.471123e-001 -1.193504e-001 4.039198e-005 2.602688e-004 2.356990e-005 1.032716e-006 -1.946288e-001 2.933475e-001
446500000 1.939001e-001 6.655714e-003 -2.816739e-005 1.423384e-004 6.961670e-005 -1.249260e-005 -1.672381e-001 2.994545e-001
449750000 1.273333e-001 1.793465e-001 -2.050974e-004 -3.977355e-005 -3.371276e-005 -8.633592e-006 -1.392829e-001 3.033566e-001
453000000 -1.392430e-002 2.058219e-001 -1.285249e-004 6.055726e-005 8.897171e-007 -1.510607e-005 -1.110316e-001 3.050705e-001
456250000 -1.321179e-001 1.523094e-001 3.163685e-004 -1.207363e-004 1.462501e-005 2.323979e-005 -8.261668e-002 3.044052e-001
459500000 -1.712102e-001 -2.172565e-002 5.430642e-006 1.527198e-004 1.132650e-006 2.559627e-005 -5.431161e-002 3.015198e-001
462750000 -9.569439e-002 -1.419393e-001 -8.027228e-005 1.139061e-004 1.693528e-005 1.534214e-005 -2.619182e-002 2.963482e-001
466000000 3.854306e-002 -1.757938e-001 4.096880e-005 2.012177e-004 -1.833144e-005 -2.544440e-005 1.483583e-003 2.889740e-001
469250000 1.853988e-001 -8.620869e-002 -8.295391e-005 3.608049e-005 6.908095e-005 -7.138483e-006 2.872315e-002 2.791256e-001
472500000 2.306822e-001 1.667466e-002 -1.221899e-004 -1.738584e-004 -2.522386e-005 1.938950e-005 5.507553e-002 2.668773e-001
475750000 1.305919e-001 1.288228e-001 -2.141365e-004 -1.516975e-004 -4.199104e-005 -4.650203e-005 8.046369e-002 2.524927e-001
479000000 -4.678548e-002 1.692807e-001 4.275490e-005 -1.641447e-004 5.236247e-006 3.021812e-005 1.047640e-001 2.358206e-001
482250000 -1.501008e-001 9.702074e-002 1.707967e-004 -1.278050e-004 3.171516e-005 -2.329514e-005 1.275575e-001 2.172065e-001
485500000 -1.674173e-001 -4.789328e-002 1.863426e-004 -1.845025e-004 -2.704008e-005 -3.125331e-006 1.488238e-001 1.965650e-001
488750000 -7.758599e-002 -1.527459e-001 4.002020e-006 7.884650e-005 5.489730e-006 4.724148e-005 1.682969e-001 1.741550e-001
492000000 5.289670e-002 -1.820065e-001 -1.303868e-004 -6.567480e-006 1.032398e-005 3.244508e-005 1.859791e-001 1.499514e-001
495250000 1.639776e-001 -8.205093e-002 1.357382e-004 2.126204e-004 -2.429743e-005 -5.967831e-005 2.015024e-001 1.242599e-001
498500000 1.946049e-001 5.621030e-002 -1.291063e-004 -4.622444e-005 3.298192e-005 2.218093e-005 2.148022e-001 9.705916e-002
501750000 9.160965e-002 1.595263e-001 -2.984104e-004 5.056181e-006 4.523730e-006 1.276444e-005 2.259510e-001 6.877926e-002
505000000 -2.252657e-002 1.787189e-001 -2.768596e-005 -3.546571e-004 -1.339306e-006 -4.899719e-005 2.344954e-001 3.942591e-002
508250000 -1.296027e-001 5.072841e-002 -1.535024e-004 1.286150e-004 -2.769342e-005 2.025250e-005 2.404168e-001 9.275693e-003
511500000 -1.507545e-001 -8.306433e-002 1.565577e-004 4.100964e-005 -7.720796e-006 2.043574e-005 2.436693e-001 -2.138595e-002
514750000 -4.664055e-002 -1.703646e-001 3.366196e-005 2.015624e-005 1.262928e-005 -1.067310e-005 2.444034e-001 -5.242189e-002
518000000 8.923732e-002 -1.763834e-001 4.686107e-005 1.309346e-004 4.668907e-006 1.474848e-006 2.422938e-001 -8.340129e-002
521250000 1.759582e-001 -9.140448e-002 -2.573099e-005 1.045714e-004 1.488379e-006 4.267898e-005 2.376051e-001 -1.144606e-001
524500000 1.550969e-001 3.771355e-002 1.704215e-004 -2.783902e-005 -5.556995e-006 5.346686e-006 2.301049e-001 -1.447396e-001
527750000 2.850660e-002 1.395288e-001 -2.068260e-004 -1.176335e-004 -5.057145e-005 2.051825e-005 2.201454e-001 -1.746150e-001
531000000 -1.002643e-001 1.520569e-001 1.231426e-004 1.428496e-004 7.814516e-006 3.132657e-005 2.077595e-001 -2.035367e-001
534250000 -1.553195e-001 6.802629e-002 7.289561e-005 -9.377278e-006 -4.767557e-005 1.074067e-005 1.927104e-001 -2.315663e-001
537500000 -1.359370e-001 -9.128724e-002 -3.093020e-005 1.898505e-004 5.700591e-005 -5.097968e-005 1.753025e-001 -2.581137e-001
540750000 -5.293120e-002 -1.700887e-001 2.225770e-006 9.058482e-005 2.135422e-005 1.086494e-005 1.556509e-001 -2.832465e-001
544000000 7.857309e-002 -1.326708e-001 1.324180e-004 -1.623510e-004 -5.002263e-005 -2.586401e-005 1.338602e-001 -3.066502e-001
547250000 1.653241e-001 -3.468148e-002 -2.255095e-005 3.848932e-005 -4.547007e-005 8.194055e-006 1.101897e-001 -3.283841e-001
550500000 1.363481e-001 1.010922e-001 1.517692e-004 2.045471e-005 -3.485316e-005 4.489235e-005 8.469301e-002 -3.481390e-001
